Vgs,Vds,Ids
0.8,0.0,0.0
0.8,0.05,0.0
0.8,0.1,0.0
0.8,0.15000000000000002,0.0
0.8,0.2,0.0
0.8,0.25,0.0
0.8,0.30000000000000004,0.0
0.8,0.35000000000000003,0.0
0.8,0.4,0.0
0.8,0.45,0.0
0.8,0.5,0.0
0.8,0.55,0.0
0.8,0.6000000000000001,0.0
0.8,0.65,0.0
0.8,0.7000000000000001,0.0
0.8,0.75,0.0
0.8,0.8,0.0
0.8,0.8500000000000001,0.0
0.8,0.9,0.0
0.8,0.9500000000000001,0.0
0.8,1.0,0.0
0.8,1.05,0.0
0.8,1.1,0.0
0.8,1.1500000000000001,0.0
0.8,1.2000000000000002,0.0
0.8,1.25,0.0
0.8,1.3,0.0
0.8,1.35,0.0
0.8,1.4000000000000001,0.0
0.8,1.4500000000000002,0.0
0.8,1.5,0.0
0.8,1.55,0.0
0.8,1.6,0.0
0.8,1.6500000000000001,0.0
0.8,1.7000000000000002,0.0
0.8,1.75,0.0
0.8,1.8,0.0
0.8,1.85,0.0
0.8,1.9000000000000001,0.0
0.8,1.9500000000000002,0.0
0.8,2.0,0.0
0.8,2.0500000000000003,0.0
0.8,2.1,0.0
0.8,2.15,0.0
0.8,2.2,0.0
0.8,2.25,0.0
0.8,2.3000000000000003,0.0
0.8,2.35,0.0
0.8,2.4000000000000004,0.0
0.8,2.45,0.0
0.8,2.5,0.0
0.8,2.5500000000000003,0.0
0.8,2.6,0.0
0.8,2.6500000000000004,0.0
0.8,2.7,0.0
0.8,2.75,0.0
0.8,2.8000000000000003,0.0
0.8,2.85,0.0
0.8,2.9000000000000004,0.0
0.8,2.95,0.0
0.8,3.0,0.0
0.8,3.0500000000000003,0.0
0.8,3.1,0.0
0.8,3.1500000000000004,0.0
0.8,3.2,0.0
0.8,3.25,0.0
0.8,3.3000000000000003,0.0
0.8,3.35,0.0
0.8,3.4000000000000004,0.0
0.8,3.45,0.0
0.8,3.5,0.0
0.8,3.5500000000000003,0.0
0.8,3.6,0.0
0.8,3.6500000000000004,0.0
0.8,3.7,0.0
0.8,3.75,0.0
0.8,3.8000000000000003,0.0
0.8,3.85,0.0
0.8,3.9000000000000004,0.0
0.8,3.95,0.0
0.8,4.0,0.0
0.8,4.05,0.0
0.8,4.1000000000000005,0.0
0.8,4.15,0.0
0.8,4.2,0.0
0.8,4.25,0.0
0.8,4.3,0.0
0.8,4.3500000000000005,0.0
0.8,4.4,0.0
0.8,4.45,0.0
0.8,4.5,0.0
0.8,4.55,0.0
0.8,4.6000000000000005,0.0
0.8,4.65,0.0
0.8,4.7,0.0
0.8,4.75,0.0
0.8,4.800000000000001,0.0
0.8,4.8500000000000005,0.0
0.8,4.9,0.0
0.8,4.95,0.0
0.8191919191919192,0.0,0.0
0.8191919191919192,0.05,0.0
0.8191919191919192,0.1,0.0
0.8191919191919192,0.15000000000000002,0.0
0.8191919191919192,0.2,0.0
0.8191919191919192,0.25,0.0
0.8191919191919192,0.30000000000000004,0.0
0.8191919191919192,0.35000000000000003,0.0
0.8191919191919192,0.4,0.0
0.8191919191919192,0.45,0.0
0.8191919191919192,0.5,0.0
0.8191919191919192,0.55,0.0
0.8191919191919192,0.6000000000000001,0.0
0.8191919191919192,0.65,0.0
0.8191919191919192,0.7000000000000001,0.0
0.8191919191919192,0.75,0.0
0.8191919191919192,0.8,0.0
0.8191919191919192,0.8500000000000001,0.0
0.8191919191919192,0.9,0.0
0.8191919191919192,0.9500000000000001,0.0
0.8191919191919192,1.0,0.0
0.8191919191919192,1.05,0.0
0.8191919191919192,1.1,0.0
0.8191919191919192,1.1500000000000001,0.0
0.8191919191919192,1.2000000000000002,0.0
0.8191919191919192,1.25,0.0
0.8191919191919192,1.3,0.0
0.8191919191919192,1.35,0.0
0.8191919191919192,1.4000000000000001,0.0
0.8191919191919192,1.4500000000000002,0.0
0.8191919191919192,1.5,0.0
0.8191919191919192,1.55,0.0
0.8191919191919192,1.6,0.0
0.8191919191919192,1.6500000000000001,0.0
0.8191919191919192,1.7000000000000002,0.0
0.8191919191919192,1.75,0.0
0.8191919191919192,1.8,0.0
0.8191919191919192,1.85,0.0
0.8191919191919192,1.9000000000000001,0.0
0.8191919191919192,1.9500000000000002,0.0
0.8191919191919192,2.0,0.0
0.8191919191919192,2.0500000000000003,0.0
0.8191919191919192,2.1,0.0
0.8191919191919192,2.15,0.0
0.8191919191919192,2.2,0.0
0.8191919191919192,2.25,0.0
0.8191919191919192,2.3000000000000003,0.0
0.8191919191919192,2.35,0.0
0.8191919191919192,2.4000000000000004,0.0
0.8191919191919192,2.45,0.0
0.8191919191919192,2.5,0.0
0.8191919191919192,2.5500000000000003,0.0
0.8191919191919192,2.6,0.0
0.8191919191919192,2.6500000000000004,0.0
0.8191919191919192,2.7,0.0
0.8191919191919192,2.75,0.0
0.8191919191919192,2.8000000000000003,0.0
0.8191919191919192,2.85,0.0
0.8191919191919192,2.9000000000000004,0.0
0.8191919191919192,2.95,0.0
0.8191919191919192,3.0,0.0
0.8191919191919192,3.0500000000000003,0.0
0.8191919191919192,3.1,0.0
0.8191919191919192,3.1500000000000004,0.0
0.8191919191919192,3.2,0.0
0.8191919191919192,3.25,0.0
0.8191919191919192,3.3000000000000003,0.0
0.8191919191919192,3.35,0.0
0.8191919191919192,3.4000000000000004,0.0
0.8191919191919192,3.45,0.0
0.8191919191919192,3.5,0.0
0.8191919191919192,3.5500000000000003,0.0
0.8191919191919192,3.6,0.0
0.8191919191919192,3.6500000000000004,0.0
0.8191919191919192,3.7,0.0
0.8191919191919192,3.75,0.0
0.8191919191919192,3.8000000000000003,0.0
0.8191919191919192,3.85,0.0
0.8191919191919192,3.9000000000000004,0.0
0.8191919191919192,3.95,0.0
0.8191919191919192,4.0,0.0
0.8191919191919192,4.05,0.0
0.8191919191919192,4.1000000000000005,0.0
0.8191919191919192,4.15,0.0
0.8191919191919192,4.2,0.0
0.8191919191919192,4.25,0.0
0.8191919191919192,4.3,0.0
0.8191919191919192,4.3500000000000005,0.0
0.8191919191919192,4.4,0.0
0.8191919191919192,4.45,0.0
0.8191919191919192,4.5,0.0
0.8191919191919192,4.55,0.0
0.8191919191919192,4.6000000000000005,0.0
0.8191919191919192,4.65,0.0
0.8191919191919192,4.7,0.0
0.8191919191919192,4.75,0.0
0.8191919191919192,4.800000000000001,0.0
0.8191919191919192,4.8500000000000005,0.0
0.8191919191919192,4.9,0.0
0.8191919191919192,4.95,0.0
0.8383838383838385,0.0,0.0
0.8383838383838385,0.05,0.0
0.8383838383838385,0.1,0.0
0.8383838383838385,0.15000000000000002,0.0
0.8383838383838385,0.2,0.0
0.8383838383838385,0.25,0.0
0.8383838383838385,0.30000000000000004,0.0
0.8383838383838385,0.35000000000000003,0.0
0.8383838383838385,0.4,0.0
0.8383838383838385,0.45,0.0
0.8383838383838385,0.5,0.0
0.8383838383838385,0.55,0.0
0.8383838383838385,0.6000000000000001,0.0
0.8383838383838385,0.65,0.0
0.8383838383838385,0.7000000000000001,0.0
0.8383838383838385,0.75,0.0
0.8383838383838385,0.8,0.0
0.8383838383838385,0.8500000000000001,0.0
0.8383838383838385,0.9,0.0
0.8383838383838385,0.9500000000000001,0.0
0.8383838383838385,1.0,0.0
0.8383838383838385,1.05,0.0
0.8383838383838385,1.1,0.0
0.8383838383838385,1.1500000000000001,0.0
0.8383838383838385,1.2000000000000002,0.0
0.8383838383838385,1.25,0.0
0.8383838383838385,1.3,0.0
0.8383838383838385,1.35,0.0
0.8383838383838385,1.4000000000000001,0.0
0.8383838383838385,1.4500000000000002,0.0
0.8383838383838385,1.5,0.0
0.8383838383838385,1.55,0.0
0.8383838383838385,1.6,0.0
0.8383838383838385,1.6500000000000001,0.0
0.8383838383838385,1.7000000000000002,0.0
0.8383838383838385,1.75,0.0
0.8383838383838385,1.8,0.0
0.8383838383838385,1.85,0.0
0.8383838383838385,1.9000000000000001,0.0
0.8383838383838385,1.9500000000000002,0.0
0.8383838383838385,2.0,0.0
0.8383838383838385,2.0500000000000003,0.0
0.8383838383838385,2.1,0.0
0.8383838383838385,2.15,0.0
0.8383838383838385,2.2,0.0
0.8383838383838385,2.25,0.0
0.8383838383838385,2.3000000000000003,0.0
0.8383838383838385,2.35,0.0
0.8383838383838385,2.4000000000000004,0.0
0.8383838383838385,2.45,0.0
0.8383838383838385,2.5,0.0
0.8383838383838385,2.5500000000000003,0.0
0.8383838383838385,2.6,0.0
0.8383838383838385,2.6500000000000004,0.0
0.8383838383838385,2.7,0.0
0.8383838383838385,2.75,0.0
0.8383838383838385,2.8000000000000003,0.0
0.8383838383838385,2.85,0.0
0.8383838383838385,2.9000000000000004,0.0
0.8383838383838385,2.95,0.0
0.8383838383838385,3.0,0.0
0.8383838383838385,3.0500000000000003,0.0
0.8383838383838385,3.1,0.0
0.8383838383838385,3.1500000000000004,0.0
0.8383838383838385,3.2,0.0
0.8383838383838385,3.25,0.0
0.8383838383838385,3.3000000000000003,0.0
0.8383838383838385,3.35,0.0
0.8383838383838385,3.4000000000000004,0.0
0.8383838383838385,3.45,0.0
0.8383838383838385,3.5,0.0
0.8383838383838385,3.5500000000000003,0.0
0.8383838383838385,3.6,0.0
0.8383838383838385,3.6500000000000004,0.0
0.8383838383838385,3.7,0.0
0.8383838383838385,3.75,0.0
0.8383838383838385,3.8000000000000003,0.0
0.8383838383838385,3.85,0.0
0.8383838383838385,3.9000000000000004,0.0
0.8383838383838385,3.95,0.0
0.8383838383838385,4.0,0.0
0.8383838383838385,4.05,0.0
0.8383838383838385,4.1000000000000005,0.0
0.8383838383838385,4.15,0.0
0.8383838383838385,4.2,0.0
0.8383838383838385,4.25,0.0
0.8383838383838385,4.3,0.0
0.8383838383838385,4.3500000000000005,0.0
0.8383838383838385,4.4,0.0
0.8383838383838385,4.45,0.0
0.8383838383838385,4.5,0.0
0.8383838383838385,4.55,0.0
0.8383838383838385,4.6000000000000005,0.0
0.8383838383838385,4.65,0.0
0.8383838383838385,4.7,0.0
0.8383838383838385,4.75,0.0
0.8383838383838385,4.800000000000001,0.0
0.8383838383838385,4.8500000000000005,0.0
0.8383838383838385,4.9,0.0
0.8383838383838385,4.95,0.0
0.8575757575757577,0.0,0.0
0.8575757575757577,0.05,0.0
0.8575757575757577,0.1,0.0
0.8575757575757577,0.15000000000000002,0.0
0.8575757575757577,0.2,0.0
0.8575757575757577,0.25,0.0
0.8575757575757577,0.30000000000000004,0.0
0.8575757575757577,0.35000000000000003,0.0
0.8575757575757577,0.4,0.0
0.8575757575757577,0.45,0.0
0.8575757575757577,0.5,0.0
0.8575757575757577,0.55,0.0
0.8575757575757577,0.6000000000000001,0.0
0.8575757575757577,0.65,0.0
0.8575757575757577,0.7000000000000001,0.0
0.8575757575757577,0.75,0.0
0.8575757575757577,0.8,0.0
0.8575757575757577,0.8500000000000001,0.0
0.8575757575757577,0.9,0.0
0.8575757575757577,0.9500000000000001,0.0
0.8575757575757577,1.0,0.0
0.8575757575757577,1.05,0.0
0.8575757575757577,1.1,0.0
0.8575757575757577,1.1500000000000001,0.0
0.8575757575757577,1.2000000000000002,0.0
0.8575757575757577,1.25,0.0
0.8575757575757577,1.3,0.0
0.8575757575757577,1.35,0.0
0.8575757575757577,1.4000000000000001,0.0
0.8575757575757577,1.4500000000000002,0.0
0.8575757575757577,1.5,0.0
0.8575757575757577,1.55,0.0
0.8575757575757577,1.6,0.0
0.8575757575757577,1.6500000000000001,0.0
0.8575757575757577,1.7000000000000002,0.0
0.8575757575757577,1.75,0.0
0.8575757575757577,1.8,0.0
0.8575757575757577,1.85,0.0
0.8575757575757577,1.9000000000000001,0.0
0.8575757575757577,1.9500000000000002,0.0
0.8575757575757577,2.0,0.0
0.8575757575757577,2.0500000000000003,0.0
0.8575757575757577,2.1,0.0
0.8575757575757577,2.15,0.0
0.8575757575757577,2.2,0.0
0.8575757575757577,2.25,0.0
0.8575757575757577,2.3000000000000003,0.0
0.8575757575757577,2.35,0.0
0.8575757575757577,2.4000000000000004,0.0
0.8575757575757577,2.45,0.0
0.8575757575757577,2.5,0.0
0.8575757575757577,2.5500000000000003,0.0
0.8575757575757577,2.6,0.0
0.8575757575757577,2.6500000000000004,0.0
0.8575757575757577,2.7,0.0
0.8575757575757577,2.75,0.0
0.8575757575757577,2.8000000000000003,0.0
0.8575757575757577,2.85,0.0
0.8575757575757577,2.9000000000000004,0.0
0.8575757575757577,2.95,0.0
0.8575757575757577,3.0,0.0
0.8575757575757577,3.0500000000000003,0.0
0.8575757575757577,3.1,0.0
0.8575757575757577,3.1500000000000004,0.0
0.8575757575757577,3.2,0.0
0.8575757575757577,3.25,0.0
0.8575757575757577,3.3000000000000003,0.0
0.8575757575757577,3.35,0.0
0.8575757575757577,3.4000000000000004,0.0
0.8575757575757577,3.45,0.0
0.8575757575757577,3.5,0.0
0.8575757575757577,3.5500000000000003,0.0
0.8575757575757577,3.6,0.0
0.8575757575757577,3.6500000000000004,0.0
0.8575757575757577,3.7,0.0
0.8575757575757577,3.75,0.0
0.8575757575757577,3.8000000000000003,0.0
0.8575757575757577,3.85,0.0
0.8575757575757577,3.9000000000000004,0.0
0.8575757575757577,3.95,0.0
0.8575757575757577,4.0,0.0
0.8575757575757577,4.05,0.0
0.8575757575757577,4.1000000000000005,0.0
0.8575757575757577,4.15,0.0
0.8575757575757577,4.2,0.0
0.8575757575757577,4.25,0.0
0.8575757575757577,4.3,0.0
0.8575757575757577,4.3500000000000005,0.0
0.8575757575757577,4.4,0.0
0.8575757575757577,4.45,0.0
0.8575757575757577,4.5,0.0
0.8575757575757577,4.55,0.0
0.8575757575757577,4.6000000000000005,0.0
0.8575757575757577,4.65,0.0
0.8575757575757577,4.7,0.0
0.8575757575757577,4.75,0.0
0.8575757575757577,4.800000000000001,0.0
0.8575757575757577,4.8500000000000005,0.0
0.8575757575757577,4.9,0.0
0.8575757575757577,4.95,0.0
0.8767676767676769,0.0,0.0
0.8767676767676769,0.05,0.0
0.8767676767676769,0.1,0.0
0.8767676767676769,0.15000000000000002,0.0
0.8767676767676769,0.2,0.0
0.8767676767676769,0.25,0.0
0.8767676767676769,0.30000000000000004,0.0
0.8767676767676769,0.35000000000000003,0.0
0.8767676767676769,0.4,0.0
0.8767676767676769,0.45,0.0
0.8767676767676769,0.5,0.0
0.8767676767676769,0.55,0.0
0.8767676767676769,0.6000000000000001,0.0
0.8767676767676769,0.65,0.0
0.8767676767676769,0.7000000000000001,0.0
0.8767676767676769,0.75,0.0
0.8767676767676769,0.8,0.0
0.8767676767676769,0.8500000000000001,0.0
0.8767676767676769,0.9,0.0
0.8767676767676769,0.9500000000000001,0.0
0.8767676767676769,1.0,0.0
0.8767676767676769,1.05,0.0
0.8767676767676769,1.1,0.0
0.8767676767676769,1.1500000000000001,0.0
0.8767676767676769,1.2000000000000002,0.0
0.8767676767676769,1.25,0.0
0.8767676767676769,1.3,0.0
0.8767676767676769,1.35,0.0
0.8767676767676769,1.4000000000000001,0.0
0.8767676767676769,1.4500000000000002,0.0
0.8767676767676769,1.5,0.0
0.8767676767676769,1.55,0.0
0.8767676767676769,1.6,0.0
0.8767676767676769,1.6500000000000001,0.0
0.8767676767676769,1.7000000000000002,0.0
0.8767676767676769,1.75,0.0
0.8767676767676769,1.8,0.0
0.8767676767676769,1.85,0.0
0.8767676767676769,1.9000000000000001,0.0
0.8767676767676769,1.9500000000000002,0.0
0.8767676767676769,2.0,0.0
0.8767676767676769,2.0500000000000003,0.0
0.8767676767676769,2.1,0.0
0.8767676767676769,2.15,0.0
0.8767676767676769,2.2,0.0
0.8767676767676769,2.25,0.0
0.8767676767676769,2.3000000000000003,0.0
0.8767676767676769,2.35,0.0
0.8767676767676769,2.4000000000000004,0.0
0.8767676767676769,2.45,0.0
0.8767676767676769,2.5,0.0
0.8767676767676769,2.5500000000000003,0.0
0.8767676767676769,2.6,0.0
0.8767676767676769,2.6500000000000004,0.0
0.8767676767676769,2.7,0.0
0.8767676767676769,2.75,0.0
0.8767676767676769,2.8000000000000003,0.0
0.8767676767676769,2.85,0.0
0.8767676767676769,2.9000000000000004,0.0
0.8767676767676769,2.95,0.0
0.8767676767676769,3.0,0.0
0.8767676767676769,3.0500000000000003,0.0
0.8767676767676769,3.1,0.0
0.8767676767676769,3.1500000000000004,0.0
0.8767676767676769,3.2,0.0
0.8767676767676769,3.25,0.0
0.8767676767676769,3.3000000000000003,0.0
0.8767676767676769,3.35,0.0
0.8767676767676769,3.4000000000000004,0.0
0.8767676767676769,3.45,0.0
0.8767676767676769,3.5,0.0
0.8767676767676769,3.5500000000000003,0.0
0.8767676767676769,3.6,0.0
0.8767676767676769,3.6500000000000004,0.0
0.8767676767676769,3.7,0.0
0.8767676767676769,3.75,0.0
0.8767676767676769,3.8000000000000003,0.0
0.8767676767676769,3.85,0.0
0.8767676767676769,3.9000000000000004,0.0
0.8767676767676769,3.95,0.0
0.8767676767676769,4.0,0.0
0.8767676767676769,4.05,0.0
0.8767676767676769,4.1000000000000005,0.0
0.8767676767676769,4.15,0.0
0.8767676767676769,4.2,0.0
0.8767676767676769,4.25,0.0
0.8767676767676769,4.3,0.0
0.8767676767676769,4.3500000000000005,0.0
0.8767676767676769,4.4,0.0
0.8767676767676769,4.45,0.0
0.8767676767676769,4.5,0.0
0.8767676767676769,4.55,0.0
0.8767676767676769,4.6000000000000005,0.0
0.8767676767676769,4.65,0.0
0.8767676767676769,4.7,0.0
0.8767676767676769,4.75,0.0
0.8767676767676769,4.800000000000001,0.0
0.8767676767676769,4.8500000000000005,0.0
0.8767676767676769,4.9,0.0
0.8767676767676769,4.95,0.0
0.8959595959595961,0.0,0.0
0.8959595959595961,0.05,0.0
0.8959595959595961,0.1,0.0
0.8959595959595961,0.15000000000000002,0.0
0.8959595959595961,0.2,0.0
0.8959595959595961,0.25,0.0
0.8959595959595961,0.30000000000000004,0.0
0.8959595959595961,0.35000000000000003,0.0
0.8959595959595961,0.4,0.0
0.8959595959595961,0.45,0.0
0.8959595959595961,0.5,0.0
0.8959595959595961,0.55,0.0
0.8959595959595961,0.6000000000000001,0.0
0.8959595959595961,0.65,0.0
0.8959595959595961,0.7000000000000001,0.0
0.8959595959595961,0.75,0.0
0.8959595959595961,0.8,0.0
0.8959595959595961,0.8500000000000001,0.0
0.8959595959595961,0.9,0.0
0.8959595959595961,0.9500000000000001,0.0
0.8959595959595961,1.0,0.0
0.8959595959595961,1.05,0.0
0.8959595959595961,1.1,0.0
0.8959595959595961,1.1500000000000001,0.0
0.8959595959595961,1.2000000000000002,0.0
0.8959595959595961,1.25,0.0
0.8959595959595961,1.3,0.0
0.8959595959595961,1.35,0.0
0.8959595959595961,1.4000000000000001,0.0
0.8959595959595961,1.4500000000000002,0.0
0.8959595959595961,1.5,0.0
0.8959595959595961,1.55,0.0
0.8959595959595961,1.6,0.0
0.8959595959595961,1.6500000000000001,0.0
0.8959595959595961,1.7000000000000002,0.0
0.8959595959595961,1.75,0.0
0.8959595959595961,1.8,0.0
0.8959595959595961,1.85,0.0
0.8959595959595961,1.9000000000000001,0.0
0.8959595959595961,1.9500000000000002,0.0
0.8959595959595961,2.0,0.0
0.8959595959595961,2.0500000000000003,0.0
0.8959595959595961,2.1,0.0
0.8959595959595961,2.15,0.0
0.8959595959595961,2.2,0.0
0.8959595959595961,2.25,0.0
0.8959595959595961,2.3000000000000003,0.0
0.8959595959595961,2.35,0.0
0.8959595959595961,2.4000000000000004,0.0
0.8959595959595961,2.45,0.0
0.8959595959595961,2.5,0.0
0.8959595959595961,2.5500000000000003,0.0
0.8959595959595961,2.6,0.0
0.8959595959595961,2.6500000000000004,0.0
0.8959595959595961,2.7,0.0
0.8959595959595961,2.75,0.0
0.8959595959595961,2.8000000000000003,0.0
0.8959595959595961,2.85,0.0
0.8959595959595961,2.9000000000000004,0.0
0.8959595959595961,2.95,0.0
0.8959595959595961,3.0,0.0
0.8959595959595961,3.0500000000000003,0.0
0.8959595959595961,3.1,0.0
0.8959595959595961,3.1500000000000004,0.0
0.8959595959595961,3.2,0.0
0.8959595959595961,3.25,0.0
0.8959595959595961,3.3000000000000003,0.0
0.8959595959595961,3.35,0.0
0.8959595959595961,3.4000000000000004,0.0
0.8959595959595961,3.45,0.0
0.8959595959595961,3.5,0.0
0.8959595959595961,3.5500000000000003,0.0
0.8959595959595961,3.6,0.0
0.8959595959595961,3.6500000000000004,0.0
0.8959595959595961,3.7,0.0
0.8959595959595961,3.75,0.0
0.8959595959595961,3.8000000000000003,0.0
0.8959595959595961,3.85,0.0
0.8959595959595961,3.9000000000000004,0.0
0.8959595959595961,3.95,0.0
0.8959595959595961,4.0,0.0
0.8959595959595961,4.05,0.0
0.8959595959595961,4.1000000000000005,0.0
0.8959595959595961,4.15,0.0
0.8959595959595961,4.2,0.0
0.8959595959595961,4.25,0.0
0.8959595959595961,4.3,0.0
0.8959595959595961,4.3500000000000005,0.0
0.8959595959595961,4.4,0.0
0.8959595959595961,4.45,0.0
0.8959595959595961,4.5,0.0
0.8959595959595961,4.55,0.0
0.8959595959595961,4.6000000000000005,0.0
0.8959595959595961,4.65,0.0
0.8959595959595961,4.7,0.0
0.8959595959595961,4.75,0.0
0.8959595959595961,4.800000000000001,0.0
0.8959595959595961,4.8500000000000005,0.0
0.8959595959595961,4.9,0.0
0.8959595959595961,4.95,0.0
0.9151515151515153,0.0,0.0
0.9151515151515153,0.05,4.582498083979468e-06
0.9151515151515153,0.1,4.5870760041432835e-06
0.9151515151515153,0.15000000000000002,4.591653924307099e-06
0.9151515151515153,0.2,4.596231844470916e-06
0.9151515151515153,0.25,4.6008097646347296e-06
0.9151515151515153,0.30000000000000004,4.605387684798546e-06
0.9151515151515153,0.35000000000000003,4.609965604962362e-06
0.9151515151515153,0.4,4.614543525126177e-06
0.9151515151515153,0.45,4.619121445289993e-06
0.9151515151515153,0.5,4.623699365453809e-06
0.9151515151515153,0.55,4.628277285617624e-06
0.9151515151515153,0.6000000000000001,4.63285520578144e-06
0.9151515151515153,0.65,4.637433125945255e-06
0.9151515151515153,0.7000000000000001,4.642011046109072e-06
0.9151515151515153,0.75,4.646588966272887e-06
0.9151515151515153,0.8,4.651166886436703e-06
0.9151515151515153,0.8500000000000001,4.655744806600518e-06
0.9151515151515153,0.9,4.660322726764334e-06
0.9151515151515153,0.9500000000000001,4.664900646928149e-06
0.9151515151515153,1.0,4.6694785670919655e-06
0.9151515151515153,1.05,4.67405648725578e-06
0.9151515151515153,1.1,4.678634407419597e-06
0.9151515151515153,1.1500000000000001,4.683212327583412e-06
0.9151515151515153,1.2000000000000002,4.687790247747228e-06
0.9151515151515153,1.25,4.692368167911044e-06
