Vgs,Vds,Ids
0.8,0.0,0.0
0.8,0.05,0.026717626464280456
0.8,0.1,0.04311793479961842
0.8,0.15000000000000002,0.04916987500601388
0.8,0.2,0.04925118833386718
0.8,0.25,0.049300243302327205
0.8,0.30000000000000004,0.04934929827078724
0.8,0.35000000000000003,0.04939835323924726
0.8,0.4,0.04944740820770729
0.8,0.45,0.04949646317616731
0.8,0.5,0.04954551814462734
0.8,0.55,0.04959457311308736
0.8,0.6000000000000001,0.049643628081547396
0.8,0.65,0.04969268305000742
0.8,0.7000000000000001,0.04974173801846746
0.8,0.75,0.04979079298692748
0.8,0.8,0.049839847955387505
0.8,0.8500000000000001,0.049888902923847525
0.8,0.9,0.04993795789230756
0.8,0.9500000000000001,0.04998701286076758
0.8,1.0,0.050036067829227614
0.8,1.05,0.05008512279768764
0.8,1.1,0.05013417776614767
0.8,1.1500000000000001,0.050183232734607695
0.8,1.2000000000000002,0.05023228770306772
0.8,1.25,0.05028134267152774
0.8,1.3,0.05033039763998778
0.8,1.35,0.0503794526084478
0.8,1.4000000000000001,0.05042850757690783
0.8,1.4500000000000002,0.05047756254536785
0.8,1.5,0.050526617513827886
0.8,1.55,0.05057567248228791
0.8,1.6,0.05062472745074794
0.8,1.6500000000000001,0.05067378241920796
0.8,1.7000000000000002,0.050722837387667995
0.8,1.75,0.050771892356128015
0.8,1.8,0.05082094732458805
0.8,1.85,0.05087000229304807
0.8,1.9000000000000001,0.050919057261508104
0.8,1.9500000000000002,0.05096811222996813
0.8,2.0,0.05101716719842816
0.8,2.0500000000000003,0.05106622216688818
0.8,2.1,0.05111527713534821
0.8,2.15,0.05116433210380823
0.8,2.2,0.05121338707226827
0.8,2.25,0.05126244204072829
0.8,2.3000000000000003,0.05131149700918832
0.8,2.35,0.05136055197764834
0.8,2.4000000000000004,0.05140960694610837
0.8,2.45,0.051458661914568396
0.8,2.5,0.05150771688302843
0.8,2.5500000000000003,0.05155677185148845
0.8,2.6,0.051605826819948485
0.8,2.6500000000000004,0.051654881788408505
0.8,2.7,0.05170393675686854
0.8,2.75,0.05175299172532856
0.8,2.8000000000000003,0.051802046693788587
0.8,2.85,0.051851101662248614
0.8,2.9000000000000004,0.05190015663070865
0.8,2.95,0.05194921159916867
0.8,3.0,0.0519982665676287
0.8,3.0500000000000003,0.05204732153608872
0.8,3.1,0.05209637650454876
0.8,3.1500000000000004,0.05214543147300877
0.8,3.2,0.052194486441468804
0.8,3.25,0.05224354140992883
0.8,3.3000000000000003,0.05229259637838886
0.8,3.35,0.052341651346848886
0.8,3.4000000000000004,0.05239070631530892
0.8,3.45,0.05243976128376894
0.8,3.5,0.052488816252228974
0.8,3.5500000000000003,0.05253787122068899
0.8,3.6,0.05258692618914902
0.8,3.6500000000000004,0.05263598115760904
0.8,3.7,0.052685036126069076
0.8,3.75,0.052734091094529104
0.8,3.8000000000000003,0.05278314606298914
0.8,3.85,0.05283220103144916
0.8,3.9000000000000004,0.05288125599990919
0.8,3.95,0.052930310968369206
0.8,4.0,0.05297936593682924
0.8,4.05,0.05302842090528926
0.8,4.1000000000000005,0.053077475873749294
0.8,4.15,0.05312653084220932
0.8,4.2,0.053175585810669355
0.8,4.25,0.053224640779129376
0.8,4.3,0.05327369574758941
0.8,4.3500000000000005,0.05332275071604942
0.8,4.4,0.05337180568450946
0.8,4.45,0.05342086065296948
0.8,4.5,0.05346991562142951
0.8,4.55,0.05351897058988954
0.8,4.6000000000000005,0.053568025558349566
0.8,4.65,0.05361708052680959
0.8,4.7,0.05366613549526962
0.8,4.75,0.05371519046372964
0.8,4.800000000000001,0.053764245432189675
0.8,4.8500000000000005,0.053813300400649695
0.8,4.9,0.05386235536910973
0.8,4.95,0.05391141033756975
0.8191919191919192,0.0,0.0
0.8191919191919192,0.05,0.030694326464280462
0.8191919191919192,0.1,0.05107928025416389
0.8191919191919192,0.15000000000000002,0.06112381136965026
0.8191919191919192,0.2,0.06229697538182154
0.8191919191919192,0.25,0.062359024162082305
0.8191919191919192,0.30000000000000004,0.06242107294234309
0.8191919191919192,0.35000000000000003,0.062483121722603854
0.8191919191919192,0.4,0.06254517050286464
0.8191919191919192,0.45,0.06260721928312542
0.8191919191919192,0.5,0.0626692680633862
0.8191919191919192,0.55,0.06273131684364698
0.8191919191919192,0.6000000000000001,0.06279336562390776
0.8191919191919192,0.65,0.06285541440416853
0.8191919191919192,0.7000000000000001,0.06291746318442933
0.8191919191919192,0.75,0.0629795119646901
0.8191919191919192,0.8,0.06304156074495088
0.8191919191919192,0.8500000000000001,0.06310360952521164
0.8191919191919192,0.9,0.06316565830547242
0.8191919191919192,0.9500000000000001,0.0632277070857332
0.8191919191919192,1.0,0.06328975586599399
0.8191919191919192,1.05,0.06335180464625476
0.8191919191919192,1.1,0.06341385342651554
0.8191919191919192,1.1500000000000001,0.06347590220677632
0.8191919191919192,1.2000000000000002,0.0635379509870371
0.8191919191919192,1.25,0.06359999976729788
0.8191919191919192,1.3,0.06366204854755866
0.8191919191919192,1.35,0.06372409732781943
0.8191919191919192,1.4000000000000001,0.06378614610808021
0.8191919191919192,1.4500000000000002,0.06384819488834098
0.8191919191919192,1.5,0.06391024366860178
0.8191919191919192,1.55,0.06397229244886254
0.8191919191919192,1.6,0.06403434122912333
0.8191919191919192,1.6500000000000001,0.0640963900093841
0.8191919191919192,1.7000000000000002,0.06415843878964488
0.8191919191919192,1.75,0.06422048756990567
0.8191919191919192,1.8,0.06428253635016645
0.8191919191919192,1.85,0.06434458513042722
0.8191919191919192,1.9000000000000001,0.064406633910688
0.8191919191919192,1.9500000000000002,0.06446868269094877
0.8191919191919192,2.0,0.06453073147120955
0.8191919191919192,2.0500000000000003,0.06459278025147033
0.8191919191919192,2.1,0.06465482903173111
0.8191919191919192,2.15,0.06471687781199188
0.8191919191919192,2.2,0.06477892659225266
0.8191919191919192,2.25,0.06484097537251343
0.8191919191919192,2.3000000000000003,0.06490302415277424
0.8191919191919192,2.35,0.06496507293303501
0.8191919191919192,2.4000000000000004,0.06502712171329579
0.8191919191919192,2.45,0.06508917049355656
0.8191919191919192,2.5,0.06515121927381734
0.8191919191919192,2.5500000000000003,0.06521326805407811
0.8191919191919192,2.6,0.0652753168343389
0.8191919191919192,2.6500000000000004,0.06533736561459967
0.8191919191919192,2.7,0.06539941439486045
0.8191919191919192,2.75,0.06546146317512122
0.8191919191919192,2.8000000000000003,0.065523511955382
0.8191919191919192,2.85,0.06558556073564278
0.8191919191919192,2.9000000000000004,0.06564760951590358
0.8191919191919192,2.95,0.06570965829616435
0.8191919191919192,3.0,0.06577170707642513
0.8191919191919192,3.0500000000000003,0.0658337558566859
0.8191919191919192,3.1,0.06589580463694669
0.8191919191919192,3.1500000000000004,0.06595785341720746
0.8191919191919192,3.2,0.06601990219746824
0.8191919191919192,3.25,0.06608195097772901
0.8191919191919192,3.3000000000000003,0.06614399975798979
0.8191919191919192,3.35,0.06620604853825056
0.8191919191919192,3.4000000000000004,0.06626809731851135
0.8191919191919192,3.45,0.06633014609877212
0.8191919191919192,3.5,0.06639219487903292
0.8191919191919192,3.5500000000000003,0.06645424365929369
0.8191919191919192,3.6,0.06651629243955447
0.8191919191919192,3.6500000000000004,0.06657834121981525
0.8191919191919192,3.7,0.06664039000007603
0.8191919191919192,3.75,0.0667024387803368
0.8191919191919192,3.8000000000000003,0.06676448756059758
0.8191919191919192,3.85,0.06682653634085835
0.8191919191919192,3.9000000000000004,0.06688858512111914
0.8191919191919192,3.95,0.06695063390137991
0.8191919191919192,4.0,0.06701268268164069
0.8191919191919192,4.05,0.06707473146190147
0.8191919191919192,4.1000000000000005,0.06713678024216226
0.8191919191919192,4.15,0.06719882902242302
0.8191919191919192,4.2,0.06726087780268382
0.8191919191919192,4.25,0.06732292658294459
0.8191919191919192,4.3,0.06738497536320537
0.8191919191919192,4.3500000000000005,0.06744702414346614
0.8191919191919192,4.4,0.06750907292372692
0.8191919191919192,4.45,0.0675711217039877
0.8191919191919192,4.5,0.06763317048424848
0.8191919191919192,4.55,0.06769521926450925
0.8191919191919192,4.6000000000000005,0.06775726804477003
0.8191919191919192,4.65,0.06781931682503081
0.8191919191919192,4.7,0.0678813656052916
0.8191919191919192,4.75,0.06794341438555238
0.8191919191919192,4.800000000000001,0.06800546316581316
0.8191919191919192,4.8500000000000005,0.06806751194607392
0.8191919191919192,4.9,0.0681295607263347
0.8191919191919192,4.95,0.06819160950659547
0.8383838383838385,0.0,0.0
0.8383838383838385,0.05,0.03467102646428047
0.8383838383838385,0.1,0.05904062570870935
0.8383838383838385,0.15000000000000002,0.07307774773328662
0.8383838383838385,0.2,0.07687374718643337
0.8383838383838385,0.25,0.0769503146637107
0.8383838383838385,0.30000000000000004,0.07702688214098803
0.8383838383838385,0.35000000000000003,0.07710344961826535
0.8383838383838385,0.4,0.07718001709554267
0.8383838383838385,0.45,0.07725658457281999
0.8383838383838385,0.5,0.07733315205009733
0.8383838383838385,0.55,0.07740971952737465
0.8383838383838385,0.6000000000000001,0.07748628700465197
0.8383838383838385,0.65,0.07756285448192929
0.8383838383838385,0.7000000000000001,0.07763942195920662
0.8383838383838385,0.75,0.07771598943648395
0.8383838383838385,0.8,0.07779255691376127
0.8383838383838385,0.8500000000000001,0.07786912439103859
0.8383838383838385,0.9,0.07794569186831592
0.8383838383838385,0.9500000000000001,0.07802225934559323
0.8383838383838385,1.0,0.07809882682287057
0.8383838383838385,1.05,0.07817539430014787
0.8383838383838385,1.1,0.07825196177742522
0.8383838383838385,1.1500000000000001,0.07832852925470252
0.8383838383838385,1.2000000000000002,0.07840509673197987
0.8383838383838385,1.25,0.07848166420925717
0.8383838383838385,1.3,0.0785582316865345
0.8383838383838385,1.35,0.07863479916381182
0.8383838383838385,1.4000000000000001,0.07871136664108914
0.8383838383838385,1.4500000000000002,0.07878793411836647
0.8383838383838385,1.5,0.0788645015956438
0.8383838383838385,1.55,0.07894106907292112
0.8383838383838385,1.6,0.07901763655019844
0.8383838383838385,1.6500000000000001,0.07909420402747577
0.8383838383838385,1.7000000000000002,0.0791707715047531
0.8383838383838385,1.75,0.07924733898203042
0.8383838383838385,1.8,0.07932390645930774
0.8383838383838385,1.85,0.07940047393658506
0.8383838383838385,1.9000000000000001,0.0794770414138624
0.8383838383838385,1.9500000000000002,0.07955360889113972
0.8383838383838385,2.0,0.07963017636841704
0.8383838383838385,2.0500000000000003,0.07970674384569436
0.8383838383838385,2.1,0.07978331132297169
0.8383838383838385,2.15,0.07985987880024902
0.8383838383838385,2.2,0.07993644627752634
0.8383838383838385,2.25,0.08001301375480366
0.8383838383838385,2.3000000000000003,0.08008958123208099
0.8383838383838385,2.35,0.08016614870935831
0.8383838383838385,2.4000000000000004,0.08024271618663564
0.8383838383838385,2.45,0.08031928366391296
0.8383838383838385,2.5,0.08039585114119029
0.8383838383838385,2.5500000000000003,0.0804724186184676
0.8383838383838385,2.6,0.08054898609574494
0.8383838383838385,2.6500000000000004,0.08062555357302226
0.8383838383838385,2.7,0.08070212105029959
0.8383838383838385,2.75,0.0807786885275769
0.8383838383838385,2.8000000000000003,0.08085525600485423
0.8383838383838385,2.85,0.08093182348213156
0.8383838383838385,2.9000000000000004,0.08100839095940889
0.8383838383838385,2.95,0.0810849584366862
0.8383838383838385,3.0,0.08116152591396353
0.8383838383838385,3.0500000000000003,0.08123809339124086
0.8383838383838385,3.1,0.08131466086851818
0.8383838383838385,3.1500000000000004,0.0813912283457955
0.8383838383838385,3.2,0.08146779582307283
0.8383838383838385,3.25,0.08154436330035014
0.8383838383838385,3.3000000000000003,0.08162093077762748
0.8383838383838385,3.35,0.0816974982549048
0.8383838383838385,3.4000000000000004,0.08177406573218213
0.8383838383838385,3.45,0.08185063320945943
0.8383838383838385,3.5,0.08192720068673677
0.8383838383838385,3.5500000000000003,0.08200376816401408
0.8383838383838385,3.6,0.08208033564129143
0.8383838383838385,3.6500000000000004,0.08215690311856873
0.8383838383838385,3.7,0.08223347059584607
0.8383838383838385,3.75,0.08231003807312338
0.8383838383838385,3.8000000000000003,0.08238660555040071
0.8383838383838385,3.85,0.08246317302767803
0.8383838383838385,3.9000000000000004,0.08253974050495536
0.8383838383838385,3.95,0.08261630798223267
0.8383838383838385,4.0,0.08269287545951001
0.8383838383838385,4.05,0.08276944293678733
0.8383838383838385,4.1000000000000005,0.08284601041406466
0.8383838383838385,4.15,0.08292257789134197
0.8383838383838385,4.2,0.08299914536861931
0.8383838383838385,4.25,0.08307571284589663
0.8383838383838385,4.3,0.08315228032317395
0.8383838383838385,4.3500000000000005,0.08322884780045127
0.8383838383838385,4.4,0.0833054152777286
0.8383838383838385,4.45,0.08338198275500593
0.8383838383838385,4.5,0.08345855023228325
0.8383838383838385,4.55,0.08353511770956057
0.8383838383838385,4.6000000000000005,0.0836116851868379
0.8383838383838385,4.65,0.08368825266411521
0.8383838383838385,4.7,0.08376482014139255
0.8383838383838385,4.75,0.08384138761866987
0.8383838383838385,4.800000000000001,0.0839179550959472
0.8383838383838385,4.8500000000000005,0.08399452257322451
0.8383838383838385,4.9,0.08407109005050185
0.8383838383838385,4.95,0.08414765752777917
0.8575757575757577,0.0,0.0
0.8575757575757577,0.05,0.03864772646428047
0.8575757575757577,0.1,0.06700197116325482
0.8575757575757577,0.15000000000000002,0.085031684096923
0.8575757575757577,0.2,0.09270581526528508
0.8575757575757577,0.25,0.09307411480721235
0.8575757575757577,0.30000000000000004,0.09316672586672205
0.8575757575757577,0.35000000000000003,0.09325933692623169
0.8575757575757577,0.4,0.09335194798574137
0.8575757575757577,0.45,0.09344455904525102
0.8575757575757577,0.5,0.09353717010476069
0.8575757575757577,0.55,0.09362978116427034
0.8575757575757577,0.6000000000000001,0.09372239222378002
0.8575757575757577,0.65,0.09381500328328968
0.8575757575757577,0.7000000000000001,0.09390761434279934
0.8575757575757577,0.75,0.09400022540230901
0.8575757575757577,0.8,0.09409283646181868
0.8575757575757577,0.8500000000000001,0.09418544752132833
0.8575757575757577,0.9,0.09427805858083801
0.8575757575757577,0.9500000000000001,0.09437066964034767
0.8575757575757577,1.0,0.09446328069985734
0.8575757575757577,1.05,0.09455589175936699
0.8575757575757577,1.1,0.09464850281887667
0.8575757575757577,1.1500000000000001,0.09474111387838631
0.8575757575757577,1.2000000000000002,0.094833724937896
0.8575757575757577,1.25,0.09492633599740564
0.8575757575757577,1.3,0.09501894705691531
0.8575757575757577,1.35,0.09511155811642498
0.8575757575757577,1.4000000000000001,0.09520416917593465
0.8575757575757577,1.4500000000000002,0.0952967802354443
0.8575757575757577,1.5,0.09538939129495398
0.8575757575757577,1.55,0.09548200235446364
0.8575757575757577,1.6,0.0955746134139733
0.8575757575757577,1.6500000000000001,0.09566722447348297
0.8575757575757577,1.7000000000000002,0.09575983553299264
0.8575757575757577,1.75,0.09585244659250229
0.8575757575757577,1.8,0.09594505765201197
0.8575757575757577,1.85,0.09603766871152161
0.8575757575757577,1.9000000000000001,0.0961302797710313
0.8575757575757577,1.9500000000000002,0.09622289083054095
0.8575757575757577,2.0,0.09631550189005063
0.8575757575757577,2.0500000000000003,0.09640811294956027
0.8575757575757577,2.1,0.09650072400906995
0.8575757575757577,2.15,0.0965933350685796
0.8575757575757577,2.2,0.09668594612808927
0.8575757575757577,2.25,0.09677855718759892
0.8575757575757577,2.3000000000000003,0.0968711682471086
0.8575757575757577,2.35,0.09696377930661826
0.8575757575757577,2.4000000000000004,0.09705639036612793
0.8575757575757577,2.45,0.0971490014256376
0.8575757575757577,2.5,0.09724161248514726
0.8575757575757577,2.5500000000000003,0.09733422354465691
0.8575757575757577,2.6,0.0974268346041666
0.8575757575757577,2.6500000000000004,0.09751944566367624
0.8575757575757577,2.7,0.09761205672318592
0.8575757575757577,2.75,0.09770466778269557
0.8575757575757577,2.8000000000000003,0.09779727884220525
0.8575757575757577,2.85,0.09788988990171489
0.8575757575757577,2.9000000000000004,0.09798250096122457
0.8575757575757577,2.95,0.09807511202073423
0.8575757575757577,3.0,0.0981677230802439
0.8575757575757577,3.0500000000000003,0.09826033413975356
0.8575757575757577,3.1,0.09835294519926323
0.8575757575757577,3.1500000000000004,0.09844555625877288
0.8575757575757577,3.2,0.09853816731828256
0.8575757575757577,3.25,0.09863077837779222
0.8575757575757577,3.3000000000000003,0.09872338943730188
0.8575757575757577,3.35,0.09881600049681155
0.8575757575757577,3.4000000000000004,0.09890861155632122
0.8575757575757577,3.45,0.09900122261583086
0.8575757575757577,3.5,0.09909383367534055
0.8575757575757577,3.5500000000000003,0.0991864447348502
0.8575757575757577,3.6,0.09927905579435987
0.8575757575757577,3.6500000000000004,0.09937166685386953
0.8575757575757577,3.7,0.0994642779133792
0.8575757575757577,3.75,0.09955688897288885
0.8575757575757577,3.8000000000000003,0.09964950003239853
0.8575757575757577,3.85,0.09974211109190818
0.8575757575757577,3.9000000000000004,0.09983472215141785
0.8575757575757577,3.95,0.09992733321092752
0.8575757575757577,4.0,0.10001994427043719
0.8575757575757577,4.05,0.10011255532994684
0.8575757575757577,4.1000000000000005,0.10020516638945652
0.8575757575757577,4.15,0.10029777744896617
0.8575757575757577,4.2,0.10039038850847584
0.8575757575757577,4.25,0.1004829995679855
0.8575757575757577,4.3,0.10057561062749518
0.8575757575757577,4.3500000000000005,0.10066822168700482
0.8575757575757577,4.4,0.1007608327465145
0.8575757575757577,4.45,0.10085344380602415
0.8575757575757577,4.5,0.10094605486553382
0.8575757575757577,4.55,0.10103866592504347
0.8575757575757577,4.6000000000000005,0.10113127698455315
0.8575757575757577,4.65,0.1012238880440628
0.8575757575757577,4.7,0.10131649910357247
0.8575757575757577,4.75,0.10140911016308214
0.8575757575757577,4.800000000000001,0.10150172122259181
0.8575757575757577,4.8500000000000005,0.10159433228210146
0.8575757575757577,4.9,0.10168694334161114
0.8575757575757577,4.95,0.1017795544011208
0.8767676767676769,0.0,0.0
0.8767676767676769,0.05,0.04262442646428046
0.8767676767676769,0.1,0.07496331661780024
0.8767676767676769,0.15000000000000002,0.09698562046055939
0.8767676767676769,0.2,0.1086602879925578
0.8767676767676769,0.25,0.11073042459258732
0.8767676767676769,0.30000000000000004,0.11084060411954512
0.8767676767676769,0.35000000000000003,0.11095078364650292
0.8767676767676769,0.4,0.11106096317346072
0.8767676767676769,0.45,0.1111711427004185
0.8767676767676769,0.5,0.11128132222737633
0.8767676767676769,0.55,0.1113915017543341
0.8767676767676769,0.6000000000000001,0.11150168128129193
0.8767676767676769,0.65,0.1116118608082497
0.8767676767676769,0.7000000000000001,0.11172204033520752
0.8767676767676769,0.75,0.11183221986216531
0.8767676767676769,0.8,0.1119423993891231
0.8767676767676769,0.8500000000000001,0.1120525789160809
0.8767676767676769,0.9,0.1121627584430387
0.8767676767676769,0.9500000000000001,0.1122729379699965
0.8767676767676769,1.0,0.1123831174969543
0.8767676767676769,1.05,0.11249329702391209
0.8767676767676769,1.1,0.1126034765508699
0.8767676767676769,1.1500000000000001,0.11271365607782768
0.8767676767676769,1.2000000000000002,0.1128238356047855
0.8767676767676769,1.25,0.11293401513174328
0.8767676767676769,1.3,0.11304419465870111
0.8767676767676769,1.35,0.11315437418565888
0.8767676767676769,1.4000000000000001,0.11326455371261669
0.8767676767676769,1.4500000000000002,0.11337473323957448
0.8767676767676769,1.5,0.11348491276653229
0.8767676767676769,1.55,0.11359509229349007
0.8767676767676769,1.6,0.11370527182044789
0.8767676767676769,1.6500000000000001,0.11381545134740567
0.8767676767676769,1.7000000000000002,0.11392563087436348
