Vgs,Vds,Ids
0.8,0.0,0.0
0.8,0.05,0.006008205959159469
0.8,0.1,0.006047330606637602
0.8,0.15000000000000002,0.0060533658667240664
0.8,0.2,0.0060594011268105315
0.8,0.25,0.006065436386896995
0.8,0.30000000000000004,0.006071471646983461
0.8,0.35000000000000003,0.006077506907069924
0.8,0.4,0.006083542167156391
0.8,0.45,0.0060895774272428545
0.8,0.5,0.00609561268732932
0.8,0.55,0.006101647947415784
0.8,0.6000000000000001,0.006107683207502249
0.8,0.65,0.006113718467588713
0.8,0.7000000000000001,0.006119753727675178
0.8,0.75,0.0061257889877616425
0.8,0.8,0.006131824247848108
0.8,0.8500000000000001,0.006137859507934572
0.8,0.9,0.006143894768021037
0.8,0.9500000000000001,0.006149930028107501
0.8,1.0,0.006155965288193966
0.8,1.05,0.00616200054828043
0.8,1.1,0.006168035808366896
0.8,1.1500000000000001,0.00617407106845336
0.8,1.2000000000000002,0.006180106328539826
0.8,1.25,0.006186141588626289
0.8,1.3,0.006192176848712754
0.8,1.35,0.006198212108799219
0.8,1.4000000000000001,0.006204247368885684
0.8,1.4500000000000002,0.006210282628972148
0.8,1.5,0.006216317889058613
0.8,1.55,0.006222353149145077
0.8,1.6,0.006228388409231542
0.8,1.6500000000000001,0.006234423669318007
0.8,1.7000000000000002,0.006240458929404472
0.8,1.75,0.006246494189490936
0.8,1.8,0.006252529449577401
0.8,1.85,0.006258564709663865
0.8,1.9000000000000001,0.006264599969750331
0.8,1.9500000000000002,0.006270635229836795
0.8,2.0,0.006276670489923261
0.8,2.0500000000000003,0.006282705750009724
0.8,2.1,0.006288741010096189
0.8,2.15,0.006294776270182653
0.8,2.2,0.0063008115302691185
0.8,2.25,0.006306846790355583
0.8,2.3000000000000003,0.006312882050442048
0.8,2.35,0.006318917310528512
0.8,2.4000000000000004,0.006324952570614977
0.8,2.45,0.006330987830701441
0.8,2.5,0.0063370230907879065
0.8,2.5500000000000003,0.006343058350874371
0.8,2.6,0.006349093610960837
0.8,2.6500000000000004,0.0063551288710473
0.8,2.7,0.006361164131133766
0.8,2.75,0.006367199391220229
0.8,2.8000000000000003,0.006373234651306695
0.8,2.85,0.006379269911393159
0.8,2.9000000000000004,0.006385305171479624
0.8,2.95,0.006391340431566088
0.8,3.0,0.006397375691652553
0.8,3.0500000000000003,0.0064034109517390175
0.8,3.1,0.006409446211825483
0.8,3.1500000000000004,0.006415481471911947
0.8,3.2,0.006421516731998412
0.8,3.25,0.006427551992084876
0.8,3.3000000000000003,0.006433587252171341
0.8,3.35,0.006439622512257806
0.8,3.4000000000000004,0.0064456577723442715
0.8,3.45,0.006451693032430735
0.8,3.5,0.006457728292517201
0.8,3.5500000000000003,0.006463763552603664
0.8,3.6,0.00646979881269013
0.8,3.6500000000000004,0.0064758340727765935
0.8,3.7,0.006481869332863059
0.8,3.75,0.006487904592949523
0.8,3.8000000000000003,0.006493939853035988
0.8,3.85,0.006499975113122452
0.8,3.9000000000000004,0.006506010373208917
0.8,3.95,0.006512045633295382
0.8,4.0,0.006518080893381847
0.8,4.05,0.006524116153468312
0.8,4.1000000000000005,0.006530151413554777
0.8,4.15,0.006536186673641241
0.8,4.2,0.006542221933727706
0.8,4.25,0.00654825719381417
0.8,4.3,0.006554292453900636
0.8,4.3500000000000005,0.006560327713987099
0.8,4.4,0.006566362974073565
0.8,4.45,0.006572398234160028
0.8,4.5,0.006578433494246493
0.8,4.55,0.006584468754332958
0.8,4.6000000000000005,0.006590504014419423
0.8,4.65,0.006596539274505887
0.8,4.7,0.006602574534592352
0.8,4.75,0.006608609794678816
0.8,4.800000000000001,0.006614645054765282
0.8,4.8500000000000005,0.0066206803148517466
0.8,4.9,0.006626715574938212
0.8,4.95,0.006632750835024676
0.8191919191919192,0.0,0.0
0.8191919191919192,0.05,0.009984905959159471
0.8191919191919192,0.1,0.011110118404707778
0.8191919191919192,0.15000000000000002,0.011121206347227446
0.8191919191919192,0.2,0.011132294289747116
0.8191919191919192,0.25,0.01114338223226678
0.8191919191919192,0.30000000000000004,0.011154470174786452
0.8191919191919192,0.35000000000000003,0.011165558117306119
0.8191919191919192,0.4,0.011176646059825789
0.8191919191919192,0.45,0.011187734002345455
0.8191919191919192,0.5,0.011198821944865125
0.8191919191919192,0.55,0.011209909887384793
0.8191919191919192,0.6000000000000001,0.011220997829904463
0.8191919191919192,0.65,0.01123208577242413
0.8191919191919192,0.7000000000000001,0.011243173714943799
0.8191919191919192,0.75,0.011254261657463467
0.8191919191919192,0.8,0.011265349599983137
0.8191919191919192,0.8500000000000001,0.011276437542502803
0.8191919191919192,0.9,0.011287525485022473
0.8191919191919192,0.9500000000000001,0.011298613427542141
0.8191919191919192,1.0,0.011309701370061811
0.8191919191919192,1.05,0.011320789312581476
0.8191919191919192,1.1,0.011331877255101147
0.8191919191919192,1.1500000000000001,0.011342965197620814
0.8191919191919192,1.2000000000000002,0.011354053140140484
0.8191919191919192,1.25,0.01136514108266015
0.8191919191919192,1.3,0.01137622902517982
0.8191919191919192,1.35,0.011387316967699488
0.8191919191919192,1.4000000000000001,0.011398404910219158
0.8191919191919192,1.4500000000000002,0.011409492852738824
0.8191919191919192,1.5,0.011420580795258494
0.8191919191919192,1.55,0.011431668737778162
0.8191919191919192,1.6,0.011442756680297832
0.8191919191919192,1.6500000000000001,0.011453844622817498
0.8191919191919192,1.7000000000000002,0.011464932565337168
0.8191919191919192,1.75,0.011476020507856836
0.8191919191919192,1.8,0.011487108450376506
0.8191919191919192,1.85,0.011498196392896173
0.8191919191919192,1.9000000000000001,0.011509284335415843
0.8191919191919192,1.9500000000000002,0.011520372277935509
0.8191919191919192,2.0,0.011531460220455179
0.8191919191919192,2.0500000000000003,0.011542548162974847
0.8191919191919192,2.1,0.011553636105494515
0.8191919191919192,2.15,0.011564724048014183
0.8191919191919192,2.2,0.011575811990533853
0.8191919191919192,2.25,0.011586899933053521
0.8191919191919192,2.3000000000000003,0.01159798787557319
0.8191919191919192,2.35,0.011609075818092857
0.8191919191919192,2.4000000000000004,0.011620163760612527
0.8191919191919192,2.45,0.011631251703132195
0.8191919191919192,2.5,0.011642339645651863
0.8191919191919192,2.5500000000000003,0.011653427588171532
0.8191919191919192,2.6,0.011664515530691201
0.8191919191919192,2.6500000000000004,0.011675603473210868
0.8191919191919192,2.7,0.011686691415730538
0.8191919191919192,2.75,0.011697779358250204
0.8191919191919192,2.8000000000000003,0.011708867300769874
0.8191919191919192,2.85,0.011719955243289542
0.8191919191919192,2.9000000000000004,0.01173104318580921
0.8191919191919192,2.95,0.011742131128328878
0.8191919191919192,3.0,0.011753219070848548
0.8191919191919192,3.0500000000000003,0.011764307013368216
0.8191919191919192,3.1,0.011775394955887884
0.8191919191919192,3.1500000000000004,0.011786482898407552
0.8191919191919192,3.2,0.011797570840927222
0.8191919191919192,3.25,0.01180865878344689
0.8191919191919192,3.3000000000000003,0.011819746725966558
0.8191919191919192,3.35,0.011830834668486227
0.8191919191919192,3.4000000000000004,0.011841922611005896
0.8191919191919192,3.45,0.011853010553525563
0.8191919191919192,3.5,0.011864098496045233
0.8191919191919192,3.5500000000000003,0.011875186438564899
0.8191919191919192,3.6,0.011886274381084569
0.8191919191919192,3.6500000000000004,0.011897362323604237
0.8191919191919192,3.7,0.011908450266123905
0.8191919191919192,3.75,0.011919538208643573
0.8191919191919192,3.8000000000000003,0.011930626151163243
0.8191919191919192,3.85,0.011941714093682911
0.8191919191919192,3.9000000000000004,0.01195280203620258
0.8191919191919192,3.95,0.011963889978722247
0.8191919191919192,4.0,0.011974977921241917
0.8191919191919192,4.05,0.011986065863761585
0.8191919191919192,4.1000000000000005,0.011997153806281254
0.8191919191919192,4.15,0.012008241748800922
0.8191919191919192,4.2,0.012019329691320592
0.8191919191919192,4.25,0.012030417633840258
0.8191919191919192,4.3,0.012041505576359928
0.8191919191919192,4.3500000000000005,0.012052593518879594
0.8191919191919192,4.4,0.012063681461399264
0.8191919191919192,4.45,0.012074769403918932
0.8191919191919192,4.5,0.012085857346438602
0.8191919191919192,4.55,0.012096945288958268
0.8191919191919192,4.6000000000000005,0.012108033231477938
0.8191919191919192,4.65,0.012119121173997606
0.8191919191919192,4.7,0.012130209116517276
0.8191919191919192,4.75,0.012141297059036943
0.8191919191919192,4.800000000000001,0.012152385001556612
0.8191919191919192,4.8500000000000005,0.01216347294407628
0.8191919191919192,4.9,0.01217456088659595
0.8191919191919192,4.95,0.012185648829115617
0.8383838383838385,0.0,0.0
0.8383838383838385,0.05,0.013961605959159474
0.8383838383838385,0.1,0.017700841189003853
0.8383838383838385,0.15000000000000002,0.017718506699172517
0.8383838383838385,0.2,0.017736172209341185
0.8383838383838385,0.25,0.01775383771950985
0.8383838383838385,0.30000000000000004,0.01777150322967852
0.8383838383838385,0.35000000000000003,0.017789168739847185
0.8383838383838385,0.4,0.017806834250015852
0.8383838383838385,0.45,0.017824499760184517
0.8383838383838385,0.5,0.017842165270353184
0.8383838383838385,0.55,0.01785983078052185
0.8383838383838385,0.6000000000000001,0.01787749629069052
0.8383838383838385,0.65,0.017895161800859184
0.8383838383838385,0.7000000000000001,0.017912827311027852
0.8383838383838385,0.75,0.017930492821196516
0.8383838383838385,0.8,0.017948158331365184
0.8383838383838385,0.8500000000000001,0.01796582384153385
0.8383838383838385,0.9,0.01798348935170252
0.8383838383838385,0.9500000000000001,0.018001154861871184
0.8383838383838385,1.0,0.01801882037203985
0.8383838383838385,1.05,0.018036485882208516
0.8383838383838385,1.1,0.018054151392377184
0.8383838383838385,1.1500000000000001,0.018071816902545848
0.8383838383838385,1.2000000000000002,0.018089482412714516
0.8383838383838385,1.25,0.018107147922883184
0.8383838383838385,1.3,0.01812481343305185
0.8383838383838385,1.35,0.018142478943220512
0.8383838383838385,1.4000000000000001,0.018160144453389183
0.8383838383838385,1.4500000000000002,0.018177809963557844
0.8383838383838385,1.5,0.018195475473726515
0.8383838383838385,1.55,0.01821314098389518
0.8383838383838385,1.6,0.018230806494063848
0.8383838383838385,1.6500000000000001,0.018248472004232512
0.8383838383838385,1.7000000000000002,0.01826613751440118
0.8383838383838385,1.75,0.018283803024569844
0.8383838383838385,1.8,0.01830146853473851
0.8383838383838385,1.85,0.01831913404490718
0.8383838383838385,1.9000000000000001,0.018336799555075847
0.8383838383838385,1.9500000000000002,0.01835446506524451
0.8383838383838385,2.0,0.01837213057541318
0.8383838383838385,2.0500000000000003,0.018389796085581844
0.8383838383838385,2.1,0.01840746159575051
0.8383838383838385,2.15,0.01842512710591918
0.8383838383838385,2.2,0.018442792616087847
0.8383838383838385,2.25,0.01846045812625651
0.8383838383838385,2.3000000000000003,0.01847812363642518
0.8383838383838385,2.35,0.018495789146593843
0.8383838383838385,2.4000000000000004,0.01851345465676251
0.8383838383838385,2.45,0.01853112016693118
0.8383838383838385,2.5,0.018548785677099847
0.8383838383838385,2.5500000000000003,0.01856645118726851
0.8383838383838385,2.6,0.01858411669743718
0.8383838383838385,2.6500000000000004,0.018601782207605843
0.8383838383838385,2.7,0.01861944771777451
0.8383838383838385,2.75,0.018637113227943175
0.8383838383838385,2.8000000000000003,0.018654778738111846
0.8383838383838385,2.85,0.01867244424828051
0.8383838383838385,2.9000000000000004,0.01869010975844918
0.8383838383838385,2.95,0.018707775268617843
0.8383838383838385,3.0,0.01872544077878651
0.8383838383838385,3.0500000000000003,0.018743106288955175
0.8383838383838385,3.1,0.018760771799123846
0.8383838383838385,3.1500000000000004,0.01877843730929251
0.8383838383838385,3.2,0.018796102819461178
0.8383838383838385,3.25,0.018813768329629842
0.8383838383838385,3.3000000000000003,0.01883143383979851
0.8383838383838385,3.35,0.018849099349967174
0.8383838383838385,3.4000000000000004,0.018866764860135846
0.8383838383838385,3.45,0.01888443037030451
0.8383838383838385,3.5,0.018902095880473178
0.8383838383838385,3.5500000000000003,0.018919761390641842
0.8383838383838385,3.6,0.01893742690081051
0.8383838383838385,3.6500000000000004,0.018955092410979174
0.8383838383838385,3.7,0.018972757921147845
0.8383838383838385,3.75,0.01899042343131651
0.8383838383838385,3.8000000000000003,0.019008088941485177
0.8383838383838385,3.85,0.01902575445165384
0.8383838383838385,3.9000000000000004,0.01904341996182251
0.8383838383838385,3.95,0.019061085471991174
0.8383838383838385,4.0,0.01907875098215984
0.8383838383838385,4.05,0.01909641649232851
0.8383838383838385,4.1000000000000005,0.019114082002497177
0.8383838383838385,4.15,0.01913174751266584
0.8383838383838385,4.2,0.01914941302283451
0.8383838383838385,4.25,0.019167078533003173
0.8383838383838385,4.3,0.01918474404317184
0.8383838383838385,4.3500000000000005,0.019202409553340506
0.8383838383838385,4.4,0.019220075063509177
0.8383838383838385,4.45,0.019237740573677838
0.8383838383838385,4.5,0.01925540608384651
0.8383838383838385,4.55,0.01927307159401517
0.8383838383838385,4.6000000000000005,0.019290737104183837
0.8383838383838385,4.65,0.019308402614352505
0.8383838383838385,4.7,0.019326068124521173
0.8383838383838385,4.75,0.019343733634689837
0.8383838383838385,4.800000000000001,0.019361399144858505
0.8383838383838385,4.8500000000000005,0.01937906465502717
0.8383838383838385,4.9,0.019396730165195837
0.8383838383838385,4.95,0.019414395675364505
0.8575757575757577,0.0,0.0
0.8575757575757577,0.05,0.017938305959159476
0.8575757575757577,0.1,0.02554175268946612
0.8575757575757577,0.15000000000000002,0.025845266922559274
0.8575757575757577,0.2,0.02587103488559274
0.8575757575757577,0.25,0.025896802848626194
0.8575757575757577,0.30000000000000004,0.025922570811659655
0.8575757575757577,0.35000000000000003,0.025948338774693113
0.8575757575757577,0.4,0.025974106737726575
0.8575757575757577,0.45,0.025999874700760033
0.8575757575757577,0.5,0.02602564266379349
0.8575757575757577,0.55,0.02605141062682695
0.8575757575757577,0.6000000000000001,0.02607717858986041
0.8575757575757577,0.65,0.026102946552893865
0.8575757575757577,0.7000000000000001,0.02612871451592733
0.8575757575757577,0.75,0.026154482478960784
0.8575757575757577,0.8,0.026180250441994245
0.8575757575757577,0.8500000000000001,0.0262060184050277
0.8575757575757577,0.9,0.02623178636806116
0.8575757575757577,0.9500000000000001,0.02625755433109462
0.8575757575757577,1.0,0.02628332229412808
0.8575757575757577,1.05,0.02630909025716154
0.8575757575757577,1.1,0.026334858220195
0.8575757575757577,1.1500000000000001,0.026360626183228455
0.8575757575757577,1.2000000000000002,0.026386394146261916
0.8575757575757577,1.25,0.02641216210929537
0.8575757575757577,1.3,0.026437930072328832
0.8575757575757577,1.35,0.02646369803536229
0.8575757575757577,1.4000000000000001,0.02648946599839575
0.8575757575757577,1.4500000000000002,0.02651523396142921
0.8575757575757577,1.5,0.02654100192446267
0.8575757575757577,1.55,0.02656676988749613
0.8575757575757577,1.6,0.026592537850529587
0.8575757575757577,1.6500000000000001,0.02661830581356304
0.8575757575757577,1.7000000000000002,0.026644073776596507
0.8575757575757577,1.75,0.02666984173962996
0.8575757575757577,1.8,0.026695609702663426
0.8575757575757577,1.85,0.02672137766569688
0.8575757575757577,1.9000000000000001,0.026747145628730342
0.8575757575757577,1.9500000000000002,0.026772913591763797
0.8575757575757577,2.0,0.026798681554797258
0.8575757575757577,2.0500000000000003,0.026824449517830716
0.8575757575757577,2.1,0.026850217480864177
0.8575757575757577,2.15,0.026875985443897635
0.8575757575757577,2.2,0.026901753406931097
0.8575757575757577,2.25,0.02692752136996455
0.8575757575757577,2.3000000000000003,0.026953289332998016
0.8575757575757577,2.35,0.026979057296031467
0.8575757575757577,2.4000000000000004,0.02700482525906493
0.8575757575757577,2.45,0.027030593222098387
0.8575757575757577,2.5,0.02705636118513185
0.8575757575757577,2.5500000000000003,0.027082129148165306
0.8575757575757577,2.6,0.027107897111198768
0.8575757575757577,2.6500000000000004,0.027133665074232226
0.8575757575757577,2.7,0.027159433037265684
0.8575757575757577,2.75,0.02718520100029914
0.8575757575757577,2.8000000000000003,0.027210968963332603
0.8575757575757577,2.85,0.027236736926366058
0.8575757575757577,2.9000000000000004,0.02726250488939952
0.8575757575757577,2.95,0.027288272852432977
0.8575757575757577,3.0,0.02731404081546644
0.8575757575757577,3.0500000000000003,0.027339808778499897
0.8575757575757577,3.1,0.027365576741533355
0.8575757575757577,3.1500000000000004,0.027391344704566813
0.8575757575757577,3.2,0.027417112667600274
0.8575757575757577,3.25,0.02744288063063373
0.8575757575757577,3.3000000000000003,0.027468648593667194
0.8575757575757577,3.35,0.027494416556700648
0.8575757575757577,3.4000000000000004,0.02752018451973411
0.8575757575757577,3.45,0.027545952482767564
0.8575757575757577,3.5,0.027571720445801026
0.8575757575757577,3.5500000000000003,0.027597488408834484
0.8575757575757577,3.6,0.027623256371867945
0.8575757575757577,3.6500000000000004,0.027649024334901403
0.8575757575757577,3.7,0.027674792297934864
0.8575757575757577,3.75,0.02770056026096832
0.8575757575757577,3.8000000000000003,0.02772632822400178
0.8575757575757577,3.85,0.027752096187035235
0.8575757575757577,3.9000000000000004,0.027777864150068696
0.8575757575757577,3.95,0.027803632113102154
0.8575757575757577,4.0,0.027829400076135616
0.8575757575757577,4.05,0.027855168039169074
0.8575757575757577,4.1000000000000005,0.027880936002202535
0.8575757575757577,4.15,0.027906703965235993
0.8575757575757577,4.2,0.02793247192826945
0.8575757575757577,4.25,0.027958239891302906
0.8575757575757577,4.3,0.02798400785433637
0.8575757575757577,4.3500000000000005,0.028009775817369825
0.8575757575757577,4.4,0.02803554378040329
0.8575757575757577,4.45,0.028061311743436745
0.8575757575757577,4.5,0.028087079706470206
0.8575757575757577,4.55,0.02811284766950366
0.8575757575757577,4.6000000000000005,0.028138615632537122
0.8575757575757577,4.65,0.02816438359557058
0.8575757575757577,4.7,0.02819015155860404
0.8575757575757577,4.75,0.0282159195216375
0.8575757575757577,4.800000000000001,0.02824168748467096
0.8575757575757577,4.8500000000000005,0.028267455447704416
0.8575757575757577,4.9,0.02829322341073788
0.8575757575757577,4.95,0.02831899137377133
0.8767676767676769,0.0,0.0
0.8767676767676769,0.05,0.02191500595915948
0.8767676767676769,0.1,0.03350309814401159
0.8767676767676769,0.15000000000000002,0.035501487017387735
0.8767676767676769,0.2,0.03553688231850178
0.8767676767676769,0.25,0.03557227761961582
0.8767676767676769,0.30000000000000004,0.035607672920729874
0.8767676767676769,0.35000000000000003,0.03564306822184392
0.8767676767676769,0.4,0.03567846352295796
0.8767676767676769,0.45,0.035713858824072006
0.8767676767676769,0.5,0.03574925412518606
0.8767676767676769,0.55,0.0357846494263001
0.8767676767676769,0.6000000000000001,0.035820044727414145
0.8767676767676769,0.65,0.03585544002852819
0.8767676767676769,0.7000000000000001,0.03589083532964224
0.8767676767676769,0.75,0.035926230630756284
0.8767676767676769,0.8,0.03596162593187033
0.8767676767676769,0.8500000000000001,0.03599702123298437
0.8767676767676769,0.9,0.03603241653409842
0.8767676767676769,0.9500000000000001,0.03606781183521247
0.8767676767676769,1.0,0.03610320713632651
0.8767676767676769,1.05,0.036138602437440555
0.8767676767676769,1.1,0.036173997738554606
0.8767676767676769,1.1500000000000001,0.03620939303966865
0.8767676767676769,1.2000000000000002,0.036244788340782694
0.8767676767676769,1.25,0.03628018364189674
0.8767676767676769,1.3,0.03631557894301079
0.8767676767676769,1.35,0.03635097424412483
