Vgs,Vds,Ids
0.8,0.0,0.0
0.8,0.05,0.05128282519926334
0.8,0.1,0.09229741358573802
0.8,0.15000000000000002,0.12301271515942398
0.8,0.2,0.1433976799203213
0.8,0.25,0.15342125786842986
0.8,0.30000000000000004,0.15462773067666596
0.8,0.35000000000000003,0.15478143617435647
0.8,0.4,0.154935141672047
0.8,0.45,0.15508884716973753
0.8,0.5,0.15524255266742806
0.8,0.55,0.15539625816511854
0.8,0.6000000000000001,0.1555499636628091
0.8,0.65,0.1557036691604996
0.8,0.7000000000000001,0.15585737465819013
0.8,0.75,0.15601108015588064
0.8,0.8,0.15616478565357117
0.8,0.8500000000000001,0.15631849115126167
0.8,0.9,0.15647219664895223
0.8,0.9500000000000001,0.15662590214664274
0.8,1.0,0.15677960764433327
0.8,1.05,0.15693331314202377
0.8,1.1,0.15708701863971433
0.8,1.1500000000000001,0.15724072413740484
0.8,1.2000000000000002,0.15739442963509537
0.8,1.25,0.15754813513278587
0.8,1.3,0.1577018406304764
0.8,1.35,0.15785554612816693
0.8,1.4000000000000001,0.15800925162585747
0.8,1.4500000000000002,0.15816295712354797
0.8,1.5,0.1583166626212385
0.8,1.55,0.15847036811892903
0.8,1.6,0.15862407361661957
0.8,1.6500000000000001,0.15877777911431007
0.8,1.7000000000000002,0.1589314846120006
0.8,1.75,0.1590851901096911
0.8,1.8,0.15923889560738166
0.8,1.85,0.15939260110507217
0.8,1.9000000000000001,0.1595463066027627
0.8,1.9500000000000002,0.15970001210045318
0.8,2.0,0.15985371759814376
0.8,2.0500000000000003,0.16000742309583424
0.8,2.1,0.16016112859352477
0.8,2.15,0.16031483409121527
0.8,2.2,0.1604685395889058
0.8,2.25,0.16062224508659634
0.8,2.3000000000000003,0.16077595058428687
0.8,2.35,0.16092965608197737
0.8,2.4000000000000004,0.1610833615796679
0.8,2.45,0.16123706707735844
0.8,2.5,0.16139077257504897
0.8,2.5500000000000003,0.16154447807273947
0.8,2.6,0.16169818357043
0.8,2.6500000000000004,0.16185188906812054
0.8,2.7,0.16200559456581107
0.8,2.75,0.16215930006350157
0.8,2.8000000000000003,0.1623130055611921
0.8,2.85,0.1624667110588826
0.8,2.9000000000000004,0.16262041655657317
0.8,2.95,0.16277412205426367
0.8,3.0,0.1629278275519542
0.8,3.0500000000000003,0.1630815330496447
0.8,3.1,0.16323523854733524
0.8,3.1500000000000004,0.16338894404502577
0.8,3.2,0.1635426495427163
0.8,3.25,0.16369635504040678
0.8,3.3000000000000003,0.16385006053809734
0.8,3.35,0.16400376603578784
0.8,3.4000000000000004,0.16415747153347837
0.8,3.45,0.16431117703116888
0.8,3.5,0.1644648825288594
0.8,3.5500000000000003,0.16461858802654994
0.8,3.6,0.16477229352424047
0.8,3.6500000000000004,0.16492599902193097
0.8,3.7,0.1650797045196215
0.8,3.75,0.165233410017312
0.8,3.8000000000000003,0.16538711551500257
0.8,3.85,0.16554082101269307
0.8,3.9000000000000004,0.1656945265103836
0.8,3.95,0.1658482320080741
0.8,4.0,0.16600193750576467
0.8,4.05,0.16615564300345517
0.8,4.1000000000000005,0.1663093485011457
0.8,4.15,0.1664630539988362
0.8,4.2,0.16661675949652674
0.8,4.25,0.16677046499421727
0.8,4.3,0.1669241704919078
0.8,4.3500000000000005,0.1670778759895983
0.8,4.4,0.16723158148728884
0.8,4.45,0.16738528698497937
0.8,4.5,0.1675389924826699
0.8,4.55,0.1676926979803604
0.8,4.6000000000000005,0.16784640347805094
0.8,4.65,0.1680001089757414
0.8,4.7,0.168153814473432
0.8,4.75,0.16830751997112248
0.8,4.800000000000001,0.168461225468813
0.8,4.8500000000000005,0.1686149309665035
0.8,4.9,0.16876863646419407
0.8,4.95,0.16892234196188458
0.8191919191919192,0.0,0.0
0.8191919191919192,0.05,0.05525952519926335
0.8191919191919192,0.1,0.10025875904028349
0.8191919191919192,0.15000000000000002,0.1349666515230604
0.8191919191919192,0.2,0.159352152647594
0.8191919191919192,0.25,0.1733842124138844
0.8191919191919192,0.30000000000000004,0.17717566976199922
0.8191919191919192,0.35000000000000003,0.17735178871802504
0.8191919191919192,0.4,0.17752790767405094
0.8191919191919192,0.45,0.17770402663007676
0.8191919191919192,0.5,0.1778801455861026
0.8191919191919192,0.55,0.17805626454212845
0.8191919191919192,0.6000000000000001,0.17823238349815432
0.8191919191919192,0.65,0.1784085024541801
0.8191919191919192,0.7000000000000001,0.17858462141020598
0.8191919191919192,0.75,0.17876074036623182
0.8191919191919192,0.8,0.17893685932225767
0.8191919191919192,0.8500000000000001,0.1791129782782835
0.8191919191919192,0.9,0.17928909723430939
0.8191919191919192,0.9500000000000001,0.17946521619033518
0.8191919191919192,1.0,0.17964133514636105
0.8191919191919192,1.05,0.1798174541023869
0.8191919191919192,1.1,0.17999357305841274
0.8191919191919192,1.1500000000000001,0.18016969201443855
0.8191919191919192,1.2000000000000002,0.18034581097046445
0.8191919191919192,1.25,0.18052192992649024
0.8191919191919192,1.3,0.18069804888251612
0.8191919191919192,1.35,0.18087416783854196
0.8191919191919192,1.4000000000000001,0.1810502867945678
0.8191919191919192,1.4500000000000002,0.18122640575059362
0.8191919191919192,1.5,0.1814025247066195
0.8191919191919192,1.55,0.1815786436626453
0.8191919191919192,1.6,0.18175476261867118
0.8191919191919192,1.6500000000000001,0.18193088157469703
0.8191919191919192,1.7000000000000002,0.18210700053072287
0.8191919191919192,1.75,0.1822831194867487
0.8191919191919192,1.8,0.18245923844277456
0.8191919191919192,1.85,0.18263535739880038
0.8191919191919192,1.9000000000000001,0.18281147635482625
0.8191919191919192,1.9500000000000002,0.1829875953108521
0.8191919191919192,2.0,0.18316371426687794
0.8191919191919192,2.0500000000000003,0.18333983322290376
0.8191919191919192,2.1,0.18351595217892963
0.8191919191919192,2.15,0.18369207113495545
0.8191919191919192,2.2,0.18386819009098132
0.8191919191919192,2.25,0.18404430904700714
0.8191919191919192,2.3000000000000003,0.18422042800303298
0.8191919191919192,2.35,0.18439654695905883
0.8191919191919192,2.4000000000000004,0.1845726659150847
0.8191919191919192,2.45,0.18474878487111052
0.8191919191919192,2.5,0.1849249038271364
0.8191919191919192,2.5500000000000003,0.1851010227831622
0.8191919191919192,2.6,0.18527714173918805
0.8191919191919192,2.6500000000000004,0.1854532606952139
0.8191919191919192,2.7,0.18562937965123977
0.8191919191919192,2.75,0.18580549860726558
0.8191919191919192,2.8000000000000003,0.18598161756329146
0.8191919191919192,2.85,0.18615773651931727
0.8191919191919192,2.9000000000000004,0.18633385547534312
0.8191919191919192,2.95,0.18650997443136896
0.8191919191919192,3.0,0.18668609338739484
0.8191919191919192,3.0500000000000003,0.18686221234342065
0.8191919191919192,3.1,0.1870383312994465
0.8191919191919192,3.1500000000000004,0.18721445025547234
0.8191919191919192,3.2,0.18739056921149821
0.8191919191919192,3.25,0.18756668816752403
0.8191919191919192,3.3000000000000003,0.1877428071235499
0.8191919191919192,3.35,0.18791892607957572
0.8191919191919192,3.4000000000000004,0.18809504503560157
0.8191919191919192,3.45,0.1882711639916274
0.8191919191919192,3.5,0.18844728294765328
0.8191919191919192,3.5500000000000003,0.1886234019036791
0.8191919191919192,3.6,0.18879952085970497
0.8191919191919192,3.6500000000000004,0.1889756398157308
0.8191919191919192,3.7,0.18915175877175663
0.8191919191919192,3.75,0.18932787772778248
0.8191919191919192,3.8000000000000003,0.18950399668380835
0.8191919191919192,3.85,0.18968011563983414
0.8191919191919192,3.9000000000000004,0.18985623459586
0.8191919191919192,3.95,0.19003235355188586
0.8191919191919192,4.0,0.1902084725079117
0.8191919191919192,4.05,0.19038459146393755
0.8191919191919192,4.1000000000000005,0.19056071041996342
0.8191919191919192,4.15,0.1907368293759892
0.8191919191919192,4.2,0.19091294833201508
0.8191919191919192,4.25,0.19108906728804093
0.8191919191919192,4.3,0.19126518624406677
0.8191919191919192,4.3500000000000005,0.19144130520009262
0.8191919191919192,4.4,0.1916174241561185
0.8191919191919192,4.45,0.19179354311214428
0.8191919191919192,4.5,0.19196966206817015
0.8191919191919192,4.55,0.192145781024196
0.8191919191919192,4.6000000000000005,0.19232189998022184
0.8191919191919192,4.65,0.19249801893624766
0.8191919191919192,4.7,0.19267413789227353
0.8191919191919192,4.75,0.19285025684829935
0.8191919191919192,4.800000000000001,0.19302637580432522
0.8191919191919192,4.8500000000000005,0.19320249476035106
0.8191919191919192,4.9,0.1933786137163769
0.8191919191919192,4.95,0.19355473267240272
0.8383838383838385,0.0,0.0
0.8383838383838385,0.05,0.059236225199263345
0.8383838383838385,0.1,0.10822010449482893
0.8383838383838385,0.15000000000000002,0.1469205878866967
0.8383838383838385,0.2,0.17530662537486677
0.8383838383838385,0.25,0.193347166959339
0.8383838383838385,0.30000000000000004,0.20101116264011346
0.8383838383838385,0.35000000000000003,0.2014577006739985
0.8383838383838385,0.4,0.2016577579735755
0.8383838383838385,0.45,0.20185781527315244
0.8383838383838385,0.5,0.20205787257272942
0.8383838383838385,0.55,0.20225792987230637
0.8383838383838385,0.6000000000000001,0.20245798717188335
0.8383838383838385,0.65,0.20265804447146027
0.8383838383838385,0.7000000000000001,0.20285810177103725
0.8383838383838385,0.75,0.2030581590706142
0.8383838383838385,0.8,0.20325821637019117
0.8383838383838385,0.8500000000000001,0.2034582736697681
0.8383838383838385,0.9,0.2036583309693451
0.8383838383838385,0.9500000000000001,0.20385838826892205
0.8383838383838385,1.0,0.20405844556849903
0.8383838383838385,1.05,0.20425850286807595
0.8383838383838385,1.1,0.20445856016765293
0.8383838383838385,1.1500000000000001,0.20465861746722988
0.8383838383838385,1.2000000000000002,0.20485867476680686
0.8383838383838385,1.25,0.20505873206638378
0.8383838383838385,1.3,0.20525878936596076
0.8383838383838385,1.35,0.20545884666553774
0.8383838383838385,1.4000000000000001,0.20565890396511471
0.8383838383838385,1.4500000000000002,0.20585896126469164
0.8383838383838385,1.5,0.20605901856426861
0.8383838383838385,1.55,0.20625907586384556
0.8383838383838385,1.6,0.20645913316342254
0.8383838383838385,1.6500000000000001,0.20665919046299946
0.8383838383838385,1.7000000000000002,0.20685924776257644
0.8383838383838385,1.75,0.2070593050621534
0.8383838383838385,1.8,0.2072593623617304
0.8383838383838385,1.85,0.20745941966130732
0.8383838383838385,1.9000000000000001,0.2076594769608843
0.8383838383838385,1.9500000000000002,0.20785953426046125
0.8383838383838385,2.0,0.20805959156003823
0.8383838383838385,2.0500000000000003,0.20825964885961515
0.8383838383838385,2.1,0.20845970615919213
0.8383838383838385,2.15,0.20865976345876908
0.8383838383838385,2.2,0.20885982075834605
0.8383838383838385,2.25,0.209059878057923
0.8383838383838385,2.3000000000000003,0.20925993535749998
0.8383838383838385,2.35,0.20945999265707693
0.8383838383838385,2.4000000000000004,0.2096600499566539
0.8383838383838385,2.45,0.20986010725623083
0.8383838383838385,2.5,0.2100601645558078
0.8383838383838385,2.5500000000000003,0.21026022185538476
0.8383838383838385,2.6,0.21046027915496174
0.8383838383838385,2.6500000000000004,0.21066033645453866
0.8383838383838385,2.7,0.21086039375411567
0.8383838383838385,2.75,0.21106045105369262
0.8383838383838385,2.8000000000000003,0.2112605083532696
0.8383838383838385,2.85,0.21146056565284652
0.8383838383838385,2.9000000000000004,0.2116606229524235
0.8383838383838385,2.95,0.21186068025200044
0.8383838383838385,3.0,0.21206073755157742
0.8383838383838385,3.0500000000000003,0.21226079485115434
0.8383838383838385,3.1,0.21246085215073132
0.8383838383838385,3.1500000000000004,0.2126609094503083
0.8383838383838385,3.2,0.21286096674988528
0.8383838383838385,3.25,0.2130610240494622
0.8383838383838385,3.3000000000000003,0.21326108134903918
0.8383838383838385,3.35,0.21346113864861613
0.8383838383838385,3.4000000000000004,0.2136611959481931
0.8383838383838385,3.45,0.21386125324777003
0.8383838383838385,3.5,0.214061310547347
0.8383838383838385,3.5500000000000003,0.21426136784692396
0.8383838383838385,3.6,0.21446142514650096
0.8383838383838385,3.6500000000000004,0.21466148244607788
0.8383838383838385,3.7,0.21486153974565486
0.8383838383838385,3.75,0.2150615970452318
0.8383838383838385,3.8000000000000003,0.2152616543448088
0.8383838383838385,3.85,0.2154617116443857
0.8383838383838385,3.9000000000000004,0.2156617689439627
0.8383838383838385,3.95,0.21586182624353964
0.8383838383838385,4.0,0.21606188354311662
0.8383838383838385,4.05,0.21626194084269357
0.8383838383838385,4.1000000000000005,0.21646199814227055
0.8383838383838385,4.15,0.2166620554418475
0.8383838383838385,4.2,0.21686211274142447
0.8383838383838385,4.25,0.2170621700410014
0.8383838383838385,4.3,0.21726222734057837
0.8383838383838385,4.3500000000000005,0.21746228464015532
0.8383838383838385,4.4,0.2176623419397323
0.8383838383838385,4.45,0.21786239923930922
0.8383838383838385,4.5,0.21806245653888623
0.8383838383838385,4.55,0.21826251383846318
0.8383838383838385,4.6000000000000005,0.21846257113804016
0.8383838383838385,4.65,0.21866262843761708
0.8383838383838385,4.7,0.21886268573719406
0.8383838383838385,4.75,0.219062743036771
0.8383838383838385,4.800000000000001,0.21926280033634798
0.8383838383838385,4.8500000000000005,0.2194628576359249
0.8383838383838385,4.9,0.21966291493550189
0.8383838383838385,4.95,0.21986297223507886
0.8575757575757577,0.0,0.0
0.8575757575757577,0.05,0.06321292519926336
0.8575757575757577,0.1,0.11618144994937439
0.8575757575757577,0.15000000000000002,0.15887452425033313
0.8575757575757577,0.2,0.1912610981021395
0.8575757575757577,0.25,0.21331012150479356
0.8575757575757577,0.30000000000000004,0.2249905444582953
0.8575757575757577,0.35000000000000003,0.22709917204227684
0.8575757575757577,0.4,0.2273246925706207
0.8575757575757577,0.45,0.22755021309896456
0.8575757575757577,0.5,0.22777573362730846
0.8575757575757577,0.55,0.2280012541556523
0.8575757575757577,0.6000000000000001,0.2282267746839962
0.8575757575757577,0.65,0.22845229521234003
0.8575757575757577,0.7000000000000001,0.22867781574068397
0.8575757575757577,0.75,0.22890333626902779
0.8575757575757577,0.8,0.2291288567973717
0.8575757575757577,0.8500000000000001,0.22935437732571554
0.8575757575757577,0.9,0.22957989785405944
0.8575757575757577,0.9500000000000001,0.22980541838240326
0.8575757575757577,1.0,0.23003093891074716
0.8575757575757577,1.05,0.230256459439091
0.8575757575757577,1.1,0.2304819799674349
0.8575757575757577,1.1500000000000001,0.23070750049577873
0.8575757575757577,1.2000000000000002,0.23093302102412264
0.8575757575757577,1.25,0.23115854155246648
0.8575757575757577,1.3,0.2313840620808104
0.8575757575757577,1.35,0.23160958260915424
0.8575757575757577,1.4000000000000001,0.2318351031374981
0.8575757575757577,1.4500000000000002,0.232060623665842
0.8575757575757577,1.5,0.23228614419418586
0.8575757575757577,1.55,0.2325116647225297
0.8575757575757577,1.6,0.23273718525087358
0.8575757575757577,1.6500000000000001,0.23296270577921746
0.8575757575757577,1.7000000000000002,0.23318822630756134
0.8575757575757577,1.75,0.23341374683590518
0.8575757575757577,1.8,0.23363926736424906
0.8575757575757577,1.85,0.23386478789259293
0.8575757575757577,1.9000000000000001,0.2340903084209368
0.8575757575757577,1.9500000000000002,0.23431582894928066
0.8575757575757577,2.0,0.23454134947762456
0.8575757575757577,2.0500000000000003,0.2347668700059684
0.8575757575757577,2.1,0.2349923905343123
0.8575757575757577,2.15,0.23521791106265613
0.8575757575757577,2.2,0.23544343159100004
0.8575757575757577,2.25,0.23566895211934388
0.8575757575757577,2.3000000000000003,0.2358944726476878
0.8575757575757577,2.35,0.2361199931760316
0.8575757575757577,2.4000000000000004,0.2363455137043755
0.8575757575757577,2.45,0.23657103423271936
0.8575757575757577,2.5,0.23679655476106326
0.8575757575757577,2.5500000000000003,0.2370220752894071
0.8575757575757577,2.6,0.237247595817751
0.8575757575757577,2.6500000000000004,0.23747311634609486
0.8575757575757577,2.7,0.23769863687443873
0.8575757575757577,2.75,0.23792415740278258
0.8575757575757577,2.8000000000000003,0.23814967793112649
0.8575757575757577,2.85,0.23837519845947033
0.8575757575757577,2.9000000000000004,0.2386007189878142
0.8575757575757577,2.95,0.23882623951615806
0.8575757575757577,3.0,0.23905176004450196
0.8575757575757577,3.0500000000000003,0.2392772805728458
0.8575757575757577,3.1,0.23950280110118968
0.8575757575757577,3.1500000000000004,0.23972832162953353
0.8575757575757577,3.2,0.23995384215787746
0.8575757575757577,3.25,0.24017936268622128
0.8575757575757577,3.3000000000000003,0.24040488321456518
0.8575757575757577,3.35,0.24063040374290903
0.8575757575757577,3.4000000000000004,0.24085592427125294
0.8575757575757577,3.45,0.24108144479959676
0.8575757575757577,3.5,0.24130696532794066
0.8575757575757577,3.5500000000000003,0.2415324858562845
0.8575757575757577,3.6,0.2417580063846284
0.8575757575757577,3.6500000000000004,0.24198352691297223
0.8575757575757577,3.7,0.24220904744131613
0.8575757575757577,3.75,0.24243456796966
0.8575757575757577,3.8000000000000003,0.24266008849800388
0.8575757575757577,3.85,0.24288560902634773
0.8575757575757577,3.9000000000000004,0.2431111295546916
0.8575757575757577,3.95,0.24333665008303548
0.8575757575757577,4.0,0.24356217061137936
0.8575757575757577,4.05,0.2437876911397232
0.8575757575757577,4.1000000000000005,0.24401321166806708
0.8575757575757577,4.15,0.24423873219641096
0.8575757575757577,4.2,0.2444642527247548
0.8575757575757577,4.25,0.24468977325309868
0.8575757575757577,4.3,0.24491529378144258
0.8575757575757577,4.3500000000000005,0.2451408143097864
0.8575757575757577,4.4,0.24536633483813033
0.8575757575757577,4.45,0.24559185536647418
0.8575757575757577,4.5,0.24581737589481806
0.8575757575757577,4.55,0.2460428964231619
0.8575757575757577,4.6000000000000005,0.24626841695150578
0.8575757575757577,4.65,0.24649393747984963
0.8575757575757577,4.7,0.24671945800819356
0.8575757575757577,4.75,0.24694497853653735
0.8575757575757577,4.800000000000001,0.24717049906488128
0.8575757575757577,4.8500000000000005,0.24739601959322513
0.8575757575757577,4.9,0.247621540121569
0.8575757575757577,4.95,0.24784706064991285
0.8767676767676769,0.0,0.0
0.8767676767676769,0.05,0.06718962519926336
0.8767676767676769,0.1,0.12414279540391986
0.8767676767676769,0.15000000000000002,0.17082846061396947
0.8767676767676769,0.2,0.20721557082941225
0.8767676767676769,0.25,0.23327307605024808
0.8767676767676769,0.30000000000000004,0.2489699262764772
0.8767676767676769,0.35000000000000003,0.25427620282286
0.8767676767676769,0.4,0.2545287114651866
0.8767676767676769,0.45,0.25478122010751314
0.8767676767676769,0.5,0.25503372874983976
0.8767676767676769,0.55,0.25528623739216627
0.8767676767676769,0.6000000000000001,0.2555387460344929
0.8767676767676769,0.65,0.25579125467681946
0.8767676767676769,0.7000000000000001,0.256043763319146
0.8767676767676769,0.75,0.2562962719614726
0.8767676767676769,0.8,0.2565487806037992
0.8767676767676769,0.8500000000000001,0.2568012892461258
0.8767676767676769,0.9,0.25705379788845234
0.8767676767676769,0.9500000000000001,0.2573063065307789
0.8767676767676769,1.0,0.2575588151731055
0.8767676767676769,1.05,0.25781132381543204
0.8767676767676769,1.1,0.25806383245775866
0.8767676767676769,1.1500000000000001,0.2583163411000852
0.8767676767676769,1.2000000000000002,0.2585688497424118
0.8767676767676769,1.25,0.25882135838473835
0.8767676767676769,1.3,0.259073867027065
0.8767676767676769,1.35,0.2593263756693915
0.8767676767676769,1.4000000000000001,0.2595788843117181
0.8767676767676769,1.4500000000000002,0.25983139295404467
0.8767676767676769,1.5,0.26008390159637124
0.8767676767676769,1.55,0.2603364102386978
0.8767676767676769,1.6,0.2605889188810244
0.8767676767676769,1.6500000000000001,0.26084142752335093
0.8767676767676769,1.7000000000000002,0.26109393616567755
0.8767676767676769,1.75,0.2613464448080041
0.8767676767676769,1.8,0.2615989534503307
0.8767676767676769,1.85,0.26185146209265725
